# GHz S MA R 50
! TSV S-parameters for 4-port network
! Freq     S11_Mag  S11_Ang  S12_Mag  S12_Ang ...
1.00000000e-01 3.56041611e-04 5.66542351e+00 3.21698840e-04 8.96796453e+01 4.99788522e+01 -4.00184060e-02 3.95893020e-03 8.88270742e+01 3.21698840e-04 8.96796453e+01 3.56041611e-04 5.66542351e+00 3.95893020e-03 8.88270742e+01 4.99788522e+01 -4.00184060e-02 9.99577044e-01 -4.00184060e-02 7.91786039e-05 8.88270742e+01 3.56041611e-04 5.66542351e+00 3.21698840e-04 8.96796453e+01 7.91786039e-05 8.88270742e+01 9.99577044e-01 -4.00184060e-02 3.21698840e-04 8.96796453e+01 3.56041611e-04 5.66542351e+00
1.19980000e-01 3.50521941e-04 6.91073524e+00 3.85969788e-04 8.97185185e+01 4.99785346e+01 -4.80140982e-02 4.74948467e-03 8.90106884e+01 3.85969788e-04 8.97185185e+01 3.50521941e-04 6.91073524e+00 4.74948467e-03 8.90106884e+01 4.99785346e+01 -4.80140982e-02 9.99570692e-01 -4.80140982e-02 9.49896935e-05 8.90106884e+01 3.50521941e-04 6.91073524e+00 3.85969788e-04 8.97185185e+01 9.49896935e-05 8.90106884e+01 9.99570692e-01 -4.80140982e-02 3.85969788e-04 8.97185185e+01 3.50521941e-04 6.91073524e+00
1.39960000e-01 3.45173360e-04 8.19554017e+00 4.50239896e-04 8.97440392e+01 4.99782168e+01 -5.60097951e-02 5.54002578e-03 8.91400778e+01 4.50239896e-04 8.97440392e+01 3.45173360e-04 8.19554017e+00 5.54002578e-03 8.91400778e+01 4.99782168e+01 -5.60097951e-02 9.99564336e-01 -5.60097951e-02 1.10800516e-04 8.91400778e+01 3.45173360e-04 8.19554017e+00 4.50239896e-04 8.97440392e+01 1.10800516e-04 8.91400778e+01 9.99564336e-01 -5.60097951e-02 4.50239896e-04 8.97440392e+01 3.45173360e-04 8.19554017e+00
1.59940000e-01 3.40004047e-04 9.52037680e+00 5.14509091e-04 8.97612113e+01 4.99778988e+01 -6.40054966e-02 6.33053954e-03 8.92355586e+01 5.14509091e-04 8.97612113e+01 3.40004047e-04 9.52037680e+00 6.33053954e-03 8.92355586e+01 4.99778988e+01 -6.40054966e-02 9.99557975e-01 -6.40054966e-02 1.26610791e-04 8.92355586e+01 3.40004047e-04 9.52037680e+00 5.14509091e-04 8.97612113e+01 1.26610791e-04 8.92355586e+01 9.99557975e-01 -6.40054966e-02 5.14509091e-04 8.97612113e+01 3.40004047e-04 9.52037680e+00
1.79920000e-01 3.35022404e-04 1.08856455e+01 5.78777335e-04 8.97728161e+01 4.99775805e+01 -7.20012028e-02 7.12101816e-03 8.93084254e+01 5.78777335e-04 8.97728161e+01 3.35022404e-04 1.08856455e+01 7.12101816e-03 8.93084254e+01 4.99775805e+01 -7.20012028e-02 9.99551611e-01 -7.20012028e-02 1.42420363e-04 8.93084254e+01 3.35022404e-04 1.08856455e+01 5.78777335e-04 8.97728161e+01 1.42420363e-04 8.93084254e+01 9.99551611e-01 -7.20012028e-02 5.78777335e-04 8.97728161e+01 3.35022404e-04 1.08856455e+01
1.99900000e-01 3.30237033e-04 1.22915868e+01 6.43044603e-04 8.97805231e+01 4.99772621e+01 -7.99969135e-02 7.91145700e-03 8.93654579e+01 6.43044603e-04 8.97805231e+01 3.30237033e-04 1.22915868e+01 7.91145700e-03 8.93654579e+01 4.99772621e+01 -7.99969135e-02 9.99545241e-01 -7.99969135e-02 1.58229140e-04 8.93654579e+01 3.30237033e-04 1.22915868e+01 6.43044603e-04 8.97805231e+01 1.58229140e-04 8.93654579e+01 9.99545241e-01 -7.99969135e-02 6.43044603e-04 8.97805231e+01 3.30237033e-04 1.22915868e+01
2.19880000e-01 3.25656695e-04 1.37382589e+01 7.07310878e-04 8.97853946e+01 4.99769434e+01 -8.79926287e-02 8.70185307e-03 8.94109721e+01 7.07310878e-04 8.97853946e+01 3.25656695e-04 1.37382589e+01 8.70185307e-03 8.94109721e+01 4.99769434e+01 -8.79926287e-02 9.99538868e-01 -8.79926287e-02 1.74037061e-04 8.94109721e+01 3.25656695e-04 1.37382589e+01 7.07310878e-04 8.97853946e+01 1.74037061e-04 8.94109721e+01 9.99538868e-01 -8.79926287e-02 7.07310878e-04 8.97853946e+01 3.25656695e-04 1.37382589e+01
2.39860000e-01 3.21290269e-04 1.52255150e+01 7.71576148e-04 8.97881394e+01 4.99766245e+01 -9.59883483e-02 9.49220440e-03 8.94478463e+01 7.71576148e-04 8.97881394e+01 3.21290269e-04 1.52255150e+01 9.49220440e-03 8.94478463e+01 4.99766245e+01 -9.59883483e-02 9.99532490e-01 -9.59883483e-02 1.89844088e-04 8.94478463e+01 3.21290269e-04 1.52255150e+01 7.71576148e-04 8.97881394e+01 1.89844088e-04 8.94478463e+01 9.99532490e-01 -9.59883483e-02 7.71576148e-04 8.97881394e+01 3.21290269e-04 1.52255150e+01
2.59840000e-01 3.17146702e-04 1.67529802e+01 8.35840405e-04 8.97892480e+01 4.99763054e+01 -1.03984072e-01 1.02825096e-02 8.94780734e+01 8.35840405e-04 8.97892480e+01 3.17146702e-04 1.67529802e+01 1.02825096e-02 8.94780734e+01 4.99763054e+01 -1.03984072e-01 9.99526108e-01 -1.03984072e-01 2.05650192e-04 8.94780734e+01 3.17146702e-04 1.67529802e+01 8.35840405e-04 8.97892480e+01 2.05650192e-04 8.94780734e+01 9.99526108e-01 -1.03984072e-01 8.35840405e-04 8.97892480e+01 3.17146702e-04 1.67529802e+01
2.79820000e-01 3.13234951e-04 1.83200298e+01 9.00103643e-04 8.97890709e+01 4.99759860e+01 -1.11979800e-01 1.10727677e-02 8.95030772e+01 9.00103643e-04 8.97890709e+01 3.13234951e-04 1.83200298e+01 1.10727677e-02 8.95030772e+01 4.99759860e+01 -1.11979800e-01 9.99519721e-01 -1.11979800e-01 2.21455355e-04 8.95030772e+01 3.13234951e-04 1.83200298e+01 9.00103643e-04 8.97890709e+01 2.21455355e-04 8.95030772e+01 9.99519721e-01 -1.11979800e-01 9.00103643e-04 8.97890709e+01 3.13234951e-04 1.83200298e+01
2.99800000e-01 3.09563918e-04 1.99257687e+01 9.64365856e-04 8.97878652e+01 4.99756665e+01 -1.19975533e-01 1.18629780e-02 8.95239021e+01 9.64365856e-04 8.97878652e+01 3.09563918e-04 1.99257687e+01 1.18629780e-02 8.95239021e+01 4.99756665e+01 -1.19975533e-01 9.99513330e-01 -1.19975533e-01 2.37259561e-04 8.95239021e+01 3.09563918e-04 1.99257687e+01 9.64365856e-04 8.97878652e+01 2.37259561e-04 8.95239021e+01 9.99513330e-01 -1.19975533e-01 9.64365856e-04 8.97878652e+01 3.09563918e-04 1.99257687e+01
3.19780000e-01 3.06142380e-04 2.15690136e+01 1.02862704e-03 8.97858237e+01 4.99753467e+01 -1.27971270e-01 1.26531400e-02 8.95413313e+01 1.02862704e-03 8.97858237e+01 3.06142380e-04 2.15690136e+01 1.26531400e-02 8.95413313e+01 4.99753467e+01 -1.27971270e-01 9.99506935e-01 -1.27971270e-01 2.53062800e-04 8.95413313e+01 3.06142380e-04 2.15690136e+01 1.02862704e-03 8.97858237e+01 2.53062800e-04 8.95413313e+01 9.99506935e-01 -1.27971270e-01 1.02862704e-03 8.97858237e+01 3.06142380e-04 2.15690136e+01
3.39760000e-01 3.02978905e-04 2.32482778e+01 1.09288719e-03 8.97830937e+01 4.99750267e+01 -1.35967010e-01 1.34432532e-02 8.95559640e+01 1.09288719e-03 8.97830937e+01 3.02978905e-04 2.32482778e+01 1.34432532e-02 8.95559640e+01 4.99750267e+01 -1.35967010e-01 9.99500535e-01 -1.35967010e-01 2.68865063e-04 8.95559640e+01 3.02978905e-04 2.32482778e+01 1.09288719e-03 8.97830937e+01 2.68865063e-04 8.95559640e+01 9.99500535e-01 -1.35967010e-01 1.09288719e-03 8.97830937e+01 3.02978905e-04 2.32482778e+01
3.59740000e-01 3.00081773e-04 2.49617610e+01 1.15714630e-03 8.97797902e+01 4.99747065e+01 -1.43962755e-01 1.42333173e-02 8.95682661e+01 1.15714630e-03 8.97797902e+01 3.00081773e-04 2.49617610e+01 1.42333173e-02 8.95682661e+01 4.99747065e+01 -1.43962755e-01 9.99494131e-01 -1.43962755e-01 2.84666345e-04 8.95682661e+01 3.00081773e-04 2.49617610e+01 1.15714630e-03 8.97797902e+01 2.84666345e-04 8.95682661e+01 9.99494131e-01 -1.43962755e-01 1.15714630e-03 8.97797902e+01 3.00081773e-04 2.49617610e+01
3.79720000e-01 2.97458885e-04 2.67073438e+01 1.22140438e-03 8.97760035e+01 4.99743861e+01 -1.51958504e-01 1.50233320e-02 8.95786055e+01 1.22140438e-03 8.97760035e+01 2.97458885e-04 2.67073438e+01 1.50233320e-02 8.95786055e+01 4.99743861e+01 -1.51958504e-01 9.99487723e-01 -1.51958504e-01 3.00466640e-04 8.95786055e+01 2.97458885e-04 2.67073438e+01 1.22140438e-03 8.97760035e+01 3.00466640e-04 8.95786055e+01 9.99487723e-01 -1.51958504e-01 1.22140438e-03 8.97760035e+01 2.97458885e-04 2.67073438e+01
3.99700000e-01 2.95117674e-04 2.84825881e+01 1.28566141e-03 8.97718062e+01 4.99740655e+01 -1.59954257e-01 1.58132972e-02 8.95872768e+01 1.28566141e-03 8.97718062e+01 2.95117674e-04 2.84825881e+01 1.58132972e-02 8.95872768e+01 4.99740655e+01 -1.59954257e-01 9.99481310e-01 -1.59954257e-01 3.16265944e-04 8.95872768e+01 2.95117674e-04 2.84825881e+01 1.28566141e-03 8.97718062e+01 3.16265944e-04 8.95872768e+01 9.99481310e-01 -1.59954257e-01 1.28566141e-03 8.97718062e+01 2.95117674e-04 2.84825881e+01
4.19680000e-01 2.93065011e-04 3.02847443e+01 1.34991739e-03 8.97672569e+01 4.99737446e+01 -1.67950013e-01 1.66032127e-02 8.95945180e+01 1.34991739e-03 8.97672569e+01 2.93065011e-04 3.02847443e+01 1.66032127e-02 8.95945180e+01 4.99737446e+01 -1.67950013e-01 9.99474893e-01 -1.67950013e-01 3.32064254e-04 8.95945180e+01 2.93065011e-04 3.02847443e+01 1.34991739e-03 8.97672569e+01 3.32064254e-04 8.95945180e+01 9.99474893e-01 -1.67950013e-01 1.34991739e-03 8.97672569e+01 2.93065011e-04 3.02847443e+01
4.39660000e-01 2.91307117e-04 3.21107661e+01 1.41417233e-03 8.97624036e+01 4.99734236e+01 -1.75945774e-01 1.73930784e-02 8.96005243e+01 1.41417233e-03 8.97624036e+01 2.91307117e-04 3.21107661e+01 1.73930784e-02 8.96005243e+01 4.99734236e+01 -1.75945774e-01 9.99468471e-01 -1.75945774e-01 3.47861567e-04 8.96005243e+01 2.91307117e-04 3.21107661e+01 1.41417233e-03 8.97624036e+01 3.47861567e-04 8.96005243e+01 9.99468471e-01 -1.75945774e-01 1.41417233e-03 8.97624036e+01 2.91307117e-04 3.21107661e+01
4.59640000e-01 2.89849479e-04 3.39573320e+01 1.47842622e-03 8.97572859e+01 4.99731023e+01 -1.83941538e-01 1.81828941e-02 8.96054567e+01 1.47842622e-03 8.97572859e+01 2.89849479e-04 3.39573320e+01 1.81828941e-02 8.96054567e+01 4.99731023e+01 -1.83941538e-01 9.99462046e-01 -1.83941538e-01 3.63657881e-04 8.96054567e+01 2.89849479e-04 3.39573320e+01 1.47842622e-03 8.97572859e+01 3.63657881e-04 8.96054567e+01 9.99462046e-01 -1.83941538e-01 1.47842622e-03 8.97572859e+01 2.89849479e-04 3.39573320e+01
4.79620000e-01 2.88696766e-04 3.58208748e+01 1.54267906e-03 8.97519369e+01 4.99727808e+01 -1.91937306e-01 1.89726597e-02 8.96094494e+01 1.54267906e-03 8.97519369e+01 2.88696766e-04 3.58208748e+01 1.89726597e-02 8.96094494e+01 4.99727808e+01 -1.91937306e-01 9.99455616e-01 -1.91937306e-01 3.79453194e-04 8.96094494e+01 2.88696766e-04 3.58208748e+01 1.54267906e-03 8.97519369e+01 3.79453194e-04 8.96094494e+01 9.99455616e-01 -1.91937306e-01 1.54267906e-03 8.97519369e+01 2.88696766e-04 3.58208748e+01
4.99600000e-01 2.87852765e-04 3.76976180e+01 1.60693084e-03 8.97463844e+01 4.99724591e+01 -1.99933077e-01 1.97623752e-02 8.96126153e+01 1.60693084e-03 8.97463844e+01 2.87852765e-04 3.76976180e+01 1.97623752e-02 8.96126153e+01 4.99724591e+01 -1.99933077e-01 9.99449181e-01 -1.99933077e-01 3.95247504e-04 8.96126153e+01 2.87852765e-04 3.76976180e+01 1.60693084e-03 8.97463844e+01 3.95247504e-04 8.96126153e+01 9.99449181e-01 -1.99933077e-01 1.60693084e-03 8.97463844e+01 2.87852765e-04 3.76976180e+01
5.19580000e-01 1.85547287e-04 8.13381693e+01 1.67142551e-03 8.97406625e+01 4.99818118e+01 -2.07908638e-01 2.05398456e-02 8.96149960e+01 1.67142551e-03 8.97406625e+01 1.85547287e-04 8.13381693e+01 2.05398456e-02 8.96149960e+01 4.99818118e+01 -2.07908638e-01 9.99636236e-01 -2.07908638e-01 4.10796912e-04 8.96149960e+01 1.85547287e-04 8.13381693e+01 1.67142551e-03 8.97406625e+01 4.10796912e-04 8.96149960e+01 9.99636236e-01 -2.07908638e-01 1.67142551e-03 8.97406625e+01 1.85547287e-04 8.13381693e+01
5.39560000e-01 1.90292413e-04 8.23521596e+01 1.73567970e-03 8.97348516e+01 4.99813039e+01 -2.15795097e-01 2.13292348e-02 8.96164547e+01 1.73567970e-03 8.97348516e+01 1.90292413e-04 8.23521596e+01 2.13292348e-02 8.96164547e+01 4.99813039e+01 -2.15795097e-01 9.99626078e-01 -2.15795097e-01 4.26584697e-04 8.96164547e+01 1.90292413e-04 8.23521596e+01 1.73567970e-03 8.97348516e+01 4.26584697e-04 8.96164547e+01 9.99626078e-01 -2.15795097e-01 1.73567970e-03 8.97348516e+01 1.90292413e-04 8.23521596e+01
5.59540000e-01 1.95053272e-04 8.33354813e+01 1.79993255e-03 8.97288994e+01 4.99807992e+01 -2.23679602e-01 2.21185871e-02 8.96173263e+01 1.79993255e-03 8.97288994e+01 1.95053272e-04 8.33354813e+01 2.21185871e-02 8.96173263e+01 4.99807992e+01 -2.23679602e-01 9.99615983e-01 -2.23679602e-01 4.42371742e-04 8.96173263e+01 1.95053272e-04 8.33354813e+01 1.79993255e-03 8.97288994e+01 4.42371742e-04 8.96173263e+01 9.99615983e-01 -2.23679602e-01 1.79993255e-03 8.97288994e+01 1.95053272e-04 8.33354813e+01
5.79520000e-01 1.99831136e-04 8.42894008e+01 1.86418409e-03 8.97228204e+01 4.99802975e+01 -2.31562257e-01 2.29079020e-02 8.96176711e+01 1.86418409e-03 8.97228204e+01 1.99831136e-04 8.42894008e+01 2.29079020e-02 8.96176711e+01 4.99802975e+01 -2.31562257e-01 9.99605950e-01 -2.31562257e-01 4.58158041e-04 8.96176711e+01 1.99831136e-04 8.42894008e+01 1.86418409e-03 8.97228204e+01 4.58158041e-04 8.96176711e+01 9.99605950e-01 -2.31562257e-01 1.86418409e-03 8.97228204e+01 1.99831136e-04 8.42894008e+01
5.99500000e-01 2.04627041e-04 8.52151181e+01 1.92843430e-03 8.97166275e+01 4.99797986e+01 -2.39443158e-01 2.36971794e-02 8.96175416e+01 1.92843430e-03 8.97166275e+01 2.04627041e-04 8.52151181e+01 2.36971794e-02 8.96175416e+01 4.99797986e+01 -2.39443158e-01 9.99595973e-01 -2.39443158e-01 4.73943589e-04 8.96175416e+01 2.04627041e-04 8.52151181e+01 1.92843430e-03 8.97166275e+01 4.73943589e-04 8.96175416e+01 9.99595973e-01 -2.39443158e-01 1.92843430e-03 8.97166275e+01 2.04627041e-04 8.52151181e+01
6.19480000e-01 2.09441823e-04 8.61137714e+01 1.99268319e-03 8.97103317e+01 4.99793025e+01 -2.47322392e-01 2.44864190e-02 8.96169835e+01 1.99268319e-03 8.97103317e+01 2.09441823e-04 8.61137714e+01 2.44864190e-02 8.96169835e+01 4.99793025e+01 -2.47322392e-01 9.99586050e-01 -2.47322392e-01 4.89728380e-04 8.96169835e+01 2.09441823e-04 8.61137714e+01 1.99268319e-03 8.97103317e+01 4.89728380e-04 8.96169835e+01 9.99586050e-01 -2.47322392e-01 1.99268319e-03 8.97103317e+01 2.09441823e-04 8.61137714e+01
6.39460000e-01 2.14276145e-04 8.69864419e+01 2.05693077e-03 8.97039428e+01 4.99788089e+01 -2.55200037e-01 2.52756205e-02 8.96160367e+01 2.05693077e-03 8.97039428e+01 2.14276145e-04 8.69864419e+01 2.52756205e-02 8.96160367e+01 4.99788089e+01 -2.55200037e-01 9.99576178e-01 -2.55200037e-01 5.05512411e-04 8.96160367e+01 2.14276145e-04 8.69864419e+01 2.05693077e-03 8.97039428e+01 5.05512411e-04 8.96160367e+01 9.99576178e-01 -2.55200037e-01 2.05693077e-03 8.97039428e+01 2.14276145e-04 8.69864419e+01
6.59440000e-01 2.19130525e-04 8.78341573e+01 2.12117703e-03 8.96974692e+01 4.99783177e+01 -2.63076169e-01 2.60647838e-02 8.96147363e+01 2.12117703e-03 8.96974692e+01 2.19130525e-04 8.78341573e+01 2.60647838e-02 8.96147363e+01 4.99783177e+01 -2.63076169e-01 9.99566354e-01 -2.63076169e-01 5.21295675e-04 8.96147363e+01 2.19130525e-04 8.78341573e+01 2.12117703e-03 8.96974692e+01 5.21295675e-04 8.96147363e+01 9.99566354e-01 -2.63076169e-01 2.12117703e-03 8.96974692e+01 2.19130525e-04 8.78341573e+01
6.79420000e-01 2.24005356e-04 8.86578956e+01 2.18542198e-03 8.96909186e+01 4.99778289e+01 -2.70950855e-01 2.68539085e-02 8.96131133e+01 2.18542198e-03 8.96909186e+01 2.24005356e-04 8.86578956e+01 2.68539085e-02 8.96131133e+01 4.99778289e+01 -2.70950855e-01 9.99556577e-01 -2.70950855e-01 5.37078170e-04 8.96131133e+01 2.24005356e-04 8.86578956e+01 2.18542198e-03 8.96909186e+01 5.37078170e-04 8.96131133e+01 9.99556577e-01 -2.70950855e-01 2.18542198e-03 8.96909186e+01 2.24005356e-04 8.86578956e+01
6.99400000e-01 2.28900924e-04 8.94585880e+01 2.24966561e-03 8.96842975e+01 4.99773422e+01 -2.78824159e-01 2.76429945e-02 8.96111953e+01 2.24966561e-03 8.96842975e+01 2.28900924e-04 8.94585880e+01 2.76429945e-02 8.96111953e+01 4.99773422e+01 -2.78824159e-01 9.99546844e-01 -2.78824159e-01 5.52859891e-04 8.96111953e+01 2.28900924e-04 8.94585880e+01 2.24966561e-03 8.96842975e+01 5.52859891e-04 8.96111953e+01 9.99546844e-01 -2.78824159e-01 2.24966561e-03 8.96842975e+01 2.28900924e-04 8.94585880e+01
7.19380000e-01 2.33817426e-04 9.02371215e+01 2.31390794e-03 8.96776118e+01 4.99768576e+01 -2.86696140e-01 2.84320417e-02 8.96090066e+01 2.31390794e-03 8.96776118e+01 2.33817426e-04 9.02371215e+01 2.84320417e-02 8.96090066e+01 4.99768576e+01 -2.86696140e-01 9.99537152e-01 -2.86696140e-01 5.68640833e-04 8.96090066e+01 2.33817426e-04 9.02371215e+01 2.31390794e-03 8.96776118e+01 5.68640833e-04 8.96090066e+01 9.99537152e-01 -2.86696140e-01 2.31390794e-03 8.96776118e+01 2.33817426e-04 9.02371215e+01
7.39360000e-01 2.38754980e-04 9.09943419e+01 2.37814895e-03 8.96708669e+01 4.99763751e+01 -2.94566851e-01 2.92210497e-02 8.96065691e+01 2.37814895e-03 8.96708669e+01 2.38754980e-04 9.09943419e+01 2.92210497e-02 8.96065691e+01 4.99763751e+01 -2.94566851e-01 9.99527501e-01 -2.94566851e-01 5.84420994e-04 8.96065691e+01 2.38754980e-04 9.09943419e+01 2.37814895e-03 8.96708669e+01 5.84420994e-04 8.96065691e+01 9.99527501e-01 -2.94566851e-01 2.37814895e-03 8.96708669e+01 2.38754980e-04 9.09943419e+01
7.59340000e-01 2.43713639e-04 9.17310556e+01 2.44238866e-03 8.96640675e+01 4.99758944e+01 -3.02436345e-01 3.00100185e-02 8.96039023e+01 2.44238866e-03 8.96640675e+01 2.43713639e-04 9.17310556e+01 3.00100185e-02 8.96039023e+01 4.99758944e+01 -3.02436345e-01 9.99517888e-01 -3.02436345e-01 6.00200370e-04 8.96039023e+01 2.43713639e-04 9.17310556e+01 2.44238866e-03 8.96640675e+01 6.00200370e-04 8.96039023e+01 9.99517888e-01 -3.02436345e-01 2.44238866e-03 8.96640675e+01 2.43713639e-04 9.17310556e+01
7.79320000e-01 2.48693398e-04 9.24480324e+01 2.50662706e-03 8.96572177e+01 4.99754156e+01 -3.10304669e-01 3.07989478e-02 8.96010236e+01 2.50662706e-03 8.96572177e+01 2.48693398e-04 9.24480324e+01 3.07989478e-02 8.96010236e+01 4.99754156e+01 -3.10304669e-01 9.99508311e-01 -3.10304669e-01 6.15978956e-04 8.96010236e+01 2.48693398e-04 9.24480324e+01 2.50662706e-03 8.96572177e+01 6.15978956e-04 8.96010236e+01 9.99508311e-01 -3.10304669e-01 2.50662706e-03 8.96572177e+01 2.48693398e-04 9.24480324e+01
7.99300000e-01 2.53694207e-04 9.31460067e+01 2.57086416e-03 8.96503215e+01 4.99749385e+01 -3.18171867e-01 3.15878376e-02 8.95979489e+01 2.57086416e-03 8.96503215e+01 2.53694207e-04 9.31460067e+01 3.15878376e-02 8.95979489e+01 4.99749385e+01 -3.18171867e-01 9.99498769e-01 -3.18171867e-01 6.31756751e-04 8.95979489e+01 2.53694207e-04 9.31460067e+01 2.57086416e-03 8.96503215e+01 6.31756751e-04 8.95979489e+01 9.99498769e-01 -3.18171867e-01 2.57086416e-03 8.96503215e+01 2.53694207e-04 9.31460067e+01
8.19280000e-01 2.58715972e-04 9.38256801e+01 2.63509996e-03 8.96433822e+01 4.99744631e+01 -3.26037982e-01 3.23766875e-02 8.95946924e+01 2.63509996e-03 8.96433822e+01 2.58715972e-04 9.38256801e+01 3.23766875e-02 8.95946924e+01 4.99744631e+01 -3.26037982e-01 9.99489261e-01 -3.26037982e-01 6.47533751e-04 8.95946924e+01 2.58715972e-04 9.38256801e+01 2.63509996e-03 8.96433822e+01 6.47533751e-04 8.95946924e+01 9.99489261e-01 -3.26037982e-01 2.63509996e-03 8.96433822e+01 2.58715972e-04 9.38256801e+01
8.39260000e-01 2.63758567e-04 9.44877228e+01 2.69933445e-03 8.96364029e+01 4.99739893e+01 -3.33903052e-01 3.31654976e-02 8.95912670e+01 2.69933445e-03 8.96364029e+01 2.63758567e-04 9.44877228e+01 3.31654976e-02 8.95912670e+01 4.99739893e+01 -3.33903052e-01 9.99479785e-01 -3.33903052e-01 6.63309952e-04 8.95912670e+01 2.63758567e-04 9.44877228e+01 2.69933445e-03 8.96364029e+01 6.63309952e-04 8.95912670e+01 9.99479785e-01 -3.33903052e-01 2.69933445e-03 8.96364029e+01 2.63758567e-04 9.44877228e+01
8.59240000e-01 2.68821837e-04 9.51327749e+01 2.76356764e-03 8.96293865e+01 4.99735170e+01 -3.41767116e-01 3.39542676e-02 8.95876843e+01 2.76356764e-03 8.96293865e+01 2.68821837e-04 9.51327749e+01 3.39542676e-02 8.95876843e+01 4.99735170e+01 -3.41767116e-01 9.99470340e-01 -3.41767116e-01 6.79085353e-04 8.95876843e+01 2.68821837e-04 9.51327749e+01 2.76356764e-03 8.96293865e+01 6.79085353e-04 8.95876843e+01 9.99470340e-01 -3.41767116e-01 2.76356764e-03 8.96293865e+01 2.68821837e-04 9.51327749e+01
